
T3750 000:005 SEGGER J-Link V4.90 Log File (0000ms, 0005ms total)
T3750 000:005 DLL Compiled: Jul 28 2014 10:35:20 (0000ms, 0005ms total)
T3750 000:005 Logging started @ 2018-08-21 20:22 (0000ms, 0005ms total)
T3750 000:005 JLINK_SetWarnOutHandler(...) (0000ms, 0005ms total)
T3750 000:005 JLINK_OpenEx(...)
Firmware: J-Link ARM V8 compiled Nov 28 2014 13:44:46
Hardware: V8.00
S/N: 304423265
Feature(s): RDI,FlashDL,FlashBP,JFlash,GDBFULL  returns O.K. (0299ms, 0304ms total)
T3750 000:304 JLINK_GetEmuCaps()  returns 0xB9FF7BBF (0000ms, 0304ms total)
T3750 000:304 JLINK_TIF_GetAvailable(...) (0002ms, 0306ms total)
T3750 000:306 JLINK_SetErrorOutHandler(...) (0000ms, 0306ms total)
T3750 000:306 JLINK_ExecCommand("ProjectFile = "D:\stm32project\HPS16XXTB\MDK-ARM\JLinkSettings.ini"", ...)  returns 0x00 (0002ms, 0308ms total)
T3750 000:322 JLINK_ExecCommand("Device = STM32F103CB", ...)Device "STM32F103CB" selected (128 KB flash, 20 KB RAM).  returns 0x00 (0007ms, 0315ms total)
T3750 000:329 JLINK_ExecCommand("DisableConnectionTimeout", ...)  returns 0x01 (0000ms, 0315ms total)
T3750 000:329 JLINK_GetHardwareVersion()  returns 0x13880 (0000ms, 0315ms total)
T3750 000:329 JLINK_GetDLLVersion()  returns 49000 (0000ms, 0315ms total)
T3750 000:329 JLINK_GetFirmwareString(...) (0000ms, 0315ms total)
T3750 000:340 JLINK_GetDLLVersion()  returns 49000 (0000ms, 0315ms total)
T3750 000:340 JLINK_GetCompileDateTime() (0000ms, 0315ms total)
T3750 000:342 JLINK_GetFirmwareString(...) (0000ms, 0315ms total)
T3750 000:345 JLINK_GetHardwareVersion()  returns 0x13880 (0000ms, 0315ms total)
T3750 000:356 JLINK_TIF_Select(JLINKARM_TIF_SWD)  returns 0x00 (0008ms, 0323ms total)
T3750 000:364 JLINK_SetSpeed(25000) (0002ms, 0325ms total)
T3750 000:366 JLINK_GetId() >0x108 TIF>Found SWD-DP with ID 0x1BA01477 >0x0D TIF> >0x28 TIF> >0x0D TIF> >0x28 TIF> >0x0D TIF> >0x21 TIF> >0x0D TIF> >0x28 TIF> >0x0D TIF> >0x28 TIF> >0x0D TIF> >0x28 TIF> >0x0D TIF> >0x21 TIF> >0x0D TIF> >0x21 TIF> >0x0D TIF> >0x28 TIF> >0x0D TIF> >0x21 TIF> >0x0D TIF> >0x21 TIF> >0x108 TIF>Found SWD-DP with ID 0x1BA01477 >0x0D TIF> >0x21 TIF> >0x0D TIF> >0x28 TIF> >0x0D TIF> >0x28 TIF> >0x0D TIF> >0x21 TIF> >0x0D TIF> >0x28 TIF> >0x0D TIF> >0x21 TIF> >0x0D TIF> >0x21 TIF>
 >0x0D TIF> >0x21 TIF> >0x0D TIF> >0x21 TIF> >0x0D TIF> >0x28 TIF> >0x0D TIF> >0x28 TIF> >0x0D TIF> >0x21 TIF> >0x0D TIF> >0x28 TIF> >0x0D TIF> >0x28 TIF> >0x0D TIF> >0x28 TIF> >0x0D TIF> >0x21 TIF> >0x0D TIF> >0x21 TIF> >0x0D TIF> >0x28 TIF> >0x0D TIF> >0x21 TIF> >0x0D TIF> >0x21 TIF>Found Cortex-M3 r1p1, Little endian. -- CPU_WriteMem(4 bytes @ 0xE0002000) -- CPU_ReadMem(4 bytes @ 0xE000EDF0) -- CPU_ReadMem(4 bytes @ 0xE0002000)FPUnit: 6 code (BP) slots and 2 literal slots
 -- CPU_ReadMem(4 bytes @ 0xE000EDFC) -- CPU_ReadMem(4 bytes @ 0xE0001000) -- CPU_WriteMem(4 bytes @ 0xE0001000) -- CPU_ReadMem(4 bytes @ 0xE00FF010)TPIU fitted. -- CPU_ReadMem(4 bytes @ 0xE00FF014) -- CPU_ReadMem(4 bytes @ 0xE00FF018) >0x0D TIF> >0x21 TIF>  returns 0x1BA01477 (0220ms, 0545ms total)
T3750 000:586 JLINK_GetDLLVersion()  returns 49000 (0000ms, 0545ms total)
T3750 000:586 JLINK_CORE_GetFound()  returns 0x30000FF (0000ms, 0545ms total)
T3750 000:591 JLINK_GetDebugInfo(0x100) -- Value=0xE00FF003  returns 0x00 (0000ms, 0545ms total)
T3750 000:591 JLINK_GetDebugInfo(0x101)  returns 0xFFFFFFFF (0000ms, 0545ms total)
T3750 000:591 JLINK_ReadMemEx(0xE0041FF0, 0x0010 Bytes, ..., AccessWidth = 33554436) -- CPU is running -- CPU_ReadMem(16 bytes @ 0xE0041FF0) - Data: 00 00 00 00 00 00 00 00 00 00 00 00 00 00 00 00  returns 0x10 (0003ms, 0548ms total)
T3750 000:594 JLINK_GetDebugInfo(0x102)  returns 0xFFFFFFFF (0000ms, 0548ms total)
T3750 000:594 JLINK_GetDebugInfo(0x103)  returns 0xFFFFFFFF (0000ms, 0548ms total)
T3750 000:594 JLINK_ReadMemEx(0xE0040FF0, 0x0010 Bytes, ..., AccessWidth = 33554436) -- CPU is running -- CPU_ReadMem(16 bytes @ 0xE0040FF0) - Data: 0D 00 00 00 90 00 00 00 05 00 00 00 B1 00 00 00  returns 0x10 (0003ms, 0551ms total)
T3750 000:597 JLINK_GetDebugInfo(0x104)  returns 0xFFFFFFFF (0000ms, 0551ms total)
T3750 000:597 JLINK_GetDebugInfo(0x105)  returns 0xFFFFFFFF (0000ms, 0551ms total)
T3750 000:597 JLINK_GetDebugInfo(0x106)  returns 0xFFFFFFFF (0000ms, 0551ms total)
T3750 000:597 JLINK_GetDebugInfo(0x107)  returns 0xFFFFFFFF (0000ms, 0551ms total)
T3750 000:597 JLINK_GetDebugInfo(0x10C)  returns 0xFFFFFFFF (0000ms, 0551ms total)
T3750 000:597 JLINK_ReadMemU32(0xE000ED00, 0x0001 Items, ...) -- CPU is running -- CPU_ReadMem(4 bytes @ 0xE000ED00) - Data: 31 C2 1F 41  returns 0x01 (0002ms, 0553ms total)
T3750 000:599 JLINK_GetDebugInfo(0x10F)  returns 0xFFFFFFFF (0000ms, 0553ms total)
T3750 000:599 JLINK_SetResetType(JLINKARM_RESET_TYPE_NO_RESET)  returns JLINKARM_RESET_TYPE_NORMAL (0001ms, 0554ms total)
T3750 000:600 JLINK_Reset() -- CPU is running -- CPU_WriteMem(4 bytes @ 0xE000EDF0) -- CPU is running -- CPU_WriteMem(4 bytes @ 0xE000EDFC) >0x35 TIF> -- CPU is running -- CPU_WriteMem(4 bytes @ 0xE000ED0C) -- CPU is running -- CPU_ReadMem(4 bytes @ 0xE000EDF0) -- CPU is running -- CPU_ReadMem(4 bytes @ 0xE000EDF0) -- CPU is running -- CPU_WriteMem(4 bytes @ 0xE000EDF0) -- CPU is running -- CPU_WriteMem(4 bytes @ 0xE000EDFC) -- CPU is running -- CPU_ReadMem(4 bytes @ 0xE000EDF0)
 -- CPU_WriteMem(4 bytes @ 0xE0002000) -- CPU_ReadMem(4 bytes @ 0xE000EDFC) -- CPU_ReadMem(4 bytes @ 0xE0001000) (0042ms, 0596ms total)
T3750 000:642 JLINK_Halt()  returns 0x00 (0000ms, 0596ms total)
T3750 000:642 JLINK_ReadMemU32(0xE000EDF0, 0x0001 Items, ...) -- CPU_ReadMem(4 bytes @ 0xE000EDF0) - Data: 03 00 03 00  returns 0x01 (0003ms, 0599ms total)
T3750 000:645 JLINK_WriteU32(0xE000EDF0, 0xA05F0003) -- CPU_WriteMem(4 bytes @ 0xE000EDF0)  returns 0x00 (0002ms, 0601ms total)
T3750 000:647 JLINK_WriteU32(0xE000EDFC, 0x01000000) -- CPU_WriteMem(4 bytes @ 0xE000EDFC)  returns 0x00 (0003ms, 0604ms total)
T3750 000:680 JLINK_GetHWStatus(...)  returns 0x00 (0003ms, 0607ms total)
T3750 000:700 JLINK_GetNumBPUnits(Type = 0xFFFFFF00)  returns 0x06 (0001ms, 0608ms total)
T3750 000:701 JLINK_GetNumBPUnits(Type = 0xF0)  returns 0x2000 (0000ms, 0608ms total)
T3750 000:701 JLINK_GetNumWPUnits()  returns 0x04 (0000ms, 0608ms total)
T3750 000:713 JLINK_GetSpeed()  returns 0xFA0 (0000ms, 0608ms total)
T3750 000:719 JLINK_ReadMemU32(0xE000E004, 0x0001 Items, ...) -- CPU_ReadMem(4 bytes @ 0xE000E004) - Data: 01 00 00 00  returns 0x01 (0002ms, 0610ms total)
T3750 000:721 JLINK_ReadMemU32(0xE000E004, 0x0001 Items, ...) -- CPU_ReadMem(4 bytes @ 0xE000E004) - Data: 01 00 00 00  returns 0x01 (0002ms, 0612ms total)
T3750 000:723 JLINK_WriteMemEx(0xE0001000, 0x001C Bytes, ..., AccessWidth = 33554436) - Data: 01 00 00 00 00 00 00 00 00 00 00 00 00 00 00 00 ... -- CPU_WriteMem(28 bytes @ 0xE0001000)  returns 0x1C (0003ms, 0615ms total)
T3750 000:726 JLINK_Halt()  returns 0x00 (0000ms, 0615ms total)
T3750 000:726 JLINK_IsHalted()  returns TRUE (0000ms, 0615ms total)
T3750 000:727 JLINK_WriteMem(0x20000000, 0x0164 Bytes, ...) - Data: 00 BE 0A E0 0D 78 2D 06 68 40 08 24 40 00 00 D3 ... -- CPU_WriteMem(356 bytes @ 0x20000000)  returns 0xFFFFFFFF (0003ms, 0618ms total)
T3750 000:730 JLINK_WriteReg(R0, 0x08000000)  returns 0x00 (0000ms, 0618ms total)
T3750 000:730 JLINK_WriteReg(R1, 0x03D09000)  returns 0x00 (0000ms, 0618ms total)
T3750 000:730 JLINK_WriteReg(R2, 0x00000001)  returns 0x00 (0000ms, 0618ms total)
T3750 000:730 JLINK_WriteReg(R3, 0x00000000)  returns 0x00 (0000ms, 0618ms total)
T3750 000:730 JLINK_WriteReg(R4, 0x00000000)  returns 0x00 (0000ms, 0618ms total)
T3750 000:730 JLINK_WriteReg(R5, 0x00000000)  returns 0x00 (0000ms, 0618ms total)
T3750 000:730 JLINK_WriteReg(R6, 0x00000000)  returns 0x00 (0000ms, 0618ms total)
T3750 000:730 JLINK_WriteReg(R7, 0x00000000)  returns 0x00 (0000ms, 0618ms total)
T3750 000:730 JLINK_WriteReg(R8, 0x00000000)  returns 0x00 (0000ms, 0618ms total)
T3750 000:730 JLINK_WriteReg(R9, 0x20000160)  returns 0x00 (0000ms, 0618ms total)
T3750 000:730 JLINK_WriteReg(R10, 0x00000000)  returns 0x00 (0000ms, 0618ms total)
T3750 000:730 JLINK_WriteReg(R11, 0x00000000)  returns 0x00 (0000ms, 0618ms total)
T3750 000:730 JLINK_WriteReg(R12, 0x00000000)  returns 0x00 (0000ms, 0618ms total)
T3750 000:730 JLINK_WriteReg(R13 (SP), 0x20001000)  returns 0x00 (0000ms, 0618ms total)
T3750 000:730 JLINK_WriteReg(R14, 0x20000001)  returns 0x00 (0000ms, 0618ms total)
T3750 000:730 JLINK_WriteReg(R15 (PC), 0x20000038)  returns 0x00 (0000ms, 0618ms total)
T3750 000:730 JLINK_WriteReg(XPSR, 0x01000000)  returns 0x00 (0000ms, 0618ms total)
T3750 000:730 JLINK_WriteReg(MSP, 0x20001000)  returns 0x00 (0000ms, 0618ms total)
T3750 000:730 JLINK_WriteReg(PSP, 0x20001000)  returns 0x00 (0000ms, 0618ms total)
T3750 000:730 JLINK_WriteReg(CFBP, 0x00000000)  returns 0x00 (0000ms, 0618ms total)
T3750 000:730 JLINK_SetBPEx(Addr = 0x20000000, Type = 0xFFFFFFF2) -- CPU_ReadMem(2 bytes @ 0x20000000)  returns 0x00000001 (0003ms, 0621ms total)
T3750 000:733 JLINK_Go() -- CPU_WriteMem(2 bytes @ 0x20000000) -- CPU_WriteMem(4 bytes @ 0xE0002008) -- CPU_WriteMem(4 bytes @ 0xE000200C) -- CPU_WriteMem(4 bytes @ 0xE0002010) -- CPU_WriteMem(4 bytes @ 0xE0002014) -- CPU_WriteMem(4 bytes @ 0xE0002018) -- CPU_WriteMem(4 bytes @ 0xE000201C) -- CPU_WriteMem(4 bytes @ 0xE0001004) (0022ms, 0643ms total)
T3750 000:755 JLINK_IsHalted() -- CPU_ReadMem(2 bytes @ 0x20000000)  returns TRUE (0008ms, 0651ms total)
T3750 000:763 JLINK_ReadReg(R15 (PC))  returns 0x20000000 (0000ms, 0643ms total)
T3750 000:763 JLINK_ClrBPEx(BPHandle = 0x00000001)  returns 0x00 (0000ms, 0643ms total)
T3750 000:763 JLINK_ReadReg(R0)  returns 0x00000000 (0000ms, 0643ms total)
T3750 000:764 JLINK_WriteReg(R0, 0x08000000)  returns 0x00 (0000ms, 0643ms total)
T3750 000:764 JLINK_WriteReg(R1, 0x03D09000)  returns 0x00 (0000ms, 0643ms total)
T3750 000:764 JLINK_WriteReg(R2, 0x00000001)  returns 0x00 (0000ms, 0643ms total)
T3750 000:764 JLINK_WriteReg(R3, 0x00000000)  returns 0x00 (0000ms, 0643ms total)
T3750 000:764 JLINK_WriteReg(R4, 0x00000000)  returns 0x00 (0000ms, 0643ms total)
T3750 000:764 JLINK_WriteReg(R5, 0x00000000)  returns 0x00 (0000ms, 0643ms total)
T3750 000:764 JLINK_WriteReg(R6, 0x00000000)  returns 0x00 (0000ms, 0643ms total)
T3750 000:764 JLINK_WriteReg(R7, 0x00000000)  returns 0x00 (0000ms, 0643ms total)
T3750 000:764 JLINK_WriteReg(R8, 0x00000000)  returns 0x00 (0000ms, 0643ms total)
T3750 000:764 JLINK_WriteReg(R9, 0x20000160)  returns 0x00 (0000ms, 0643ms total)
T3750 000:764 JLINK_WriteReg(R10, 0x00000000)  returns 0x00 (0000ms, 0643ms total)
T3750 000:764 JLINK_WriteReg(R11, 0x00000000)  returns 0x00 (0000ms, 0643ms total)
T3750 000:764 JLINK_WriteReg(R12, 0x00000000)  returns 0x00 (0000ms, 0643ms total)
T3750 000:764 JLINK_WriteReg(R13 (SP), 0x20001000)  returns 0x00 (0000ms, 0643ms total)
T3750 000:764 JLINK_WriteReg(R14, 0x20000001)  returns 0x00 (0000ms, 0643ms total)
T3750 000:764 JLINK_WriteReg(R15 (PC), 0x2000007C)  returns 0x00 (0000ms, 0643ms total)
T3750 000:764 JLINK_WriteReg(XPSR, 0x01000000)  returns 0x00 (0000ms, 0643ms total)
T3750 000:764 JLINK_WriteReg(MSP, 0x20001000)  returns 0x00 (0000ms, 0643ms total)
T3750 000:764 JLINK_WriteReg(PSP, 0x20001000)  returns 0x00 (0000ms, 0643ms total)
T3750 000:764 JLINK_WriteReg(CFBP, 0x00000000)  returns 0x00 (0000ms, 0643ms total)
T3750 000:764 JLINK_SetBPEx(Addr = 0x20000000, Type = 0xFFFFFFF2)  returns 0x00000002 (0000ms, 0643ms total)
T3750 000:764 JLINK_Go() (0006ms, 0649ms total)
T3750 000:770 JLINK_IsHalted()  returns FALSE (0002ms, 0651ms total)
T3750 000:815 JLINK_IsHalted() -- CPU_ReadMem(2 bytes @ 0x20000000)  returns TRUE (0007ms, 0656ms total)
T3750 000:822 JLINK_ReadReg(R15 (PC))  returns 0x20000000 (0000ms, 0649ms total)
T3750 000:822 JLINK_ClrBPEx(BPHandle = 0x00000002)  returns 0x00 (0000ms, 0649ms total)
T3750 000:822 JLINK_ReadReg(R0)  returns 0x00000000 (0000ms, 0649ms total)
T3750 000:874 JLINK_WriteReg(R0, 0x00000001)  returns 0x00 (0000ms, 0649ms total)
T3750 000:874 JLINK_WriteReg(R1, 0x03D09000)  returns 0x00 (0000ms, 0649ms total)
T3750 000:874 JLINK_WriteReg(R2, 0x00000001)  returns 0x00 (0000ms, 0649ms total)
T3750 000:874 JLINK_WriteReg(R3, 0x00000000)  returns 0x00 (0000ms, 0649ms total)
T3750 000:874 JLINK_WriteReg(R4, 0x00000000)  returns 0x00 (0000ms, 0649ms total)
T3750 000:874 JLINK_WriteReg(R5, 0x00000000)  returns 0x00 (0000ms, 0649ms total)
T3750 000:874 JLINK_WriteReg(R6, 0x00000000)  returns 0x00 (0000ms, 0649ms total)
T3750 000:874 JLINK_WriteReg(R7, 0x00000000)  returns 0x00 (0000ms, 0649ms total)
T3750 000:874 JLINK_WriteReg(R8, 0x00000000)  returns 0x00 (0000ms, 0649ms total)
T3750 000:874 JLINK_WriteReg(R9, 0x20000160)  returns 0x00 (0000ms, 0649ms total)
T3750 000:875 JLINK_WriteReg(R10, 0x00000000)  returns 0x00 (0000ms, 0649ms total)
T3750 000:875 JLINK_WriteReg(R11, 0x00000000)  returns 0x00 (0000ms, 0649ms total)
T3750 000:875 JLINK_WriteReg(R12, 0x00000000)  returns 0x00 (0000ms, 0649ms total)
T3750 000:875 JLINK_WriteReg(R13 (SP), 0x20001000)  returns 0x00 (0000ms, 0649ms total)
T3750 000:875 JLINK_WriteReg(R14, 0x20000001)  returns 0x00 (0000ms, 0649ms total)
T3750 000:875 JLINK_WriteReg(R15 (PC), 0x2000006A)  returns 0x00 (0000ms, 0649ms total)
T3750 000:875 JLINK_WriteReg(XPSR, 0x01000000)  returns 0x00 (0000ms, 0649ms total)
T3750 000:875 JLINK_WriteReg(MSP, 0x20001000)  returns 0x00 (0000ms, 0649ms total)
T3750 000:875 JLINK_WriteReg(PSP, 0x20001000)  returns 0x00 (0000ms, 0649ms total)
T3750 000:875 JLINK_WriteReg(CFBP, 0x00000000)  returns 0x00 (0000ms, 0649ms total)
T3750 000:875 JLINK_SetBPEx(Addr = 0x20000000, Type = 0xFFFFFFF2)  returns 0x00000003 (0000ms, 0649ms total)
T3750 000:875 JLINK_Go() (0005ms, 0654ms total)
T3750 000:880 JLINK_IsHalted() -- CPU_ReadMem(2 bytes @ 0x20000000)  returns TRUE (0008ms, 0662ms total)
T3750 000:888 JLINK_ReadReg(R15 (PC))  returns 0x20000000 (0000ms, 0654ms total)
T3750 000:888 JLINK_ClrBPEx(BPHandle = 0x00000003)  returns 0x00 (0000ms, 0654ms total)
T3750 000:888 JLINK_ReadReg(R0)  returns 0x00000000 (0000ms, 0654ms total)
T3750 000:903 JLINK_WriteMem(0x20000000, 0x0164 Bytes, ...) - Data: 00 BE 0A E0 0D 78 2D 06 68 40 08 24 40 00 00 D3 ... -- CPU_WriteMem(356 bytes @ 0x20000000)  returns 0x164 (0004ms, 0658ms total)
T3750 000:907 JLINK_WriteReg(R0, 0x08000000)  returns 0x00 (0000ms, 0658ms total)
T3750 000:907 JLINK_WriteReg(R1, 0x03D09000)  returns 0x00 (0000ms, 0658ms total)
T3750 000:907 JLINK_WriteReg(R2, 0x00000002)  returns 0x00 (0000ms, 0658ms total)
T3750 000:907 JLINK_WriteReg(R3, 0x00000000)  returns 0x00 (0000ms, 0658ms total)
T3750 000:907 JLINK_WriteReg(R4, 0x00000000)  returns 0x00 (0000ms, 0658ms total)
T3750 000:907 JLINK_WriteReg(R5, 0x00000000)  returns 0x00 (0000ms, 0658ms total)
T3750 000:907 JLINK_WriteReg(R6, 0x00000000)  returns 0x00 (0000ms, 0658ms total)
T3750 000:907 JLINK_WriteReg(R7, 0x00000000)  returns 0x00 (0000ms, 0658ms total)
T3750 000:907 JLINK_WriteReg(R8, 0x00000000)  returns 0x00 (0000ms, 0658ms total)
T3750 000:907 JLINK_WriteReg(R9, 0x20000160)  returns 0x00 (0000ms, 0658ms total)
T3750 000:907 JLINK_WriteReg(R10, 0x00000000)  returns 0x00 (0000ms, 0658ms total)
T3750 000:907 JLINK_WriteReg(R11, 0x00000000)  returns 0x00 (0000ms, 0658ms total)
T3750 000:907 JLINK_WriteReg(R12, 0x00000000)  returns 0x00 (0000ms, 0658ms total)
T3750 000:907 JLINK_WriteReg(R13 (SP), 0x20001000)  returns 0x00 (0001ms, 0659ms total)
T3750 000:908 JLINK_WriteReg(R14, 0x20000001)  returns 0x00 (0000ms, 0659ms total)
T3750 000:908 JLINK_WriteReg(R15 (PC), 0x20000038)  returns 0x00 (0000ms, 0659ms total)
T3750 000:908 JLINK_WriteReg(XPSR, 0x01000000)  returns 0x00 (0000ms, 0659ms total)
T3750 000:908 JLINK_WriteReg(MSP, 0x20001000)  returns 0x00 (0000ms, 0659ms total)
T3750 000:908 JLINK_WriteReg(PSP, 0x20001000)  returns 0x00 (0000ms, 0659ms total)
T3750 000:908 JLINK_WriteReg(CFBP, 0x00000000)  returns 0x00 (0000ms, 0659ms total)
T3750 000:908 JLINK_SetBPEx(Addr = 0x20000000, Type = 0xFFFFFFF2) -- CPU_ReadMem(2 bytes @ 0x20000000)  returns 0x00000004 (0002ms, 0661ms total)
T3750 000:910 JLINK_Go() -- CPU_WriteMem(2 bytes @ 0x20000000) (0007ms, 0668ms total)
T3750 000:917 JLINK_IsHalted() -- CPU_ReadMem(2 bytes @ 0x20000000)  returns TRUE (0008ms, 0676ms total)
T3750 000:925 JLINK_ReadReg(R15 (PC))  returns 0x20000000 (0000ms, 0668ms total)
T3750 000:925 JLINK_ClrBPEx(BPHandle = 0x00000004)  returns 0x00 (0000ms, 0668ms total)
T3750 000:925 JLINK_ReadReg(R0)  returns 0x00000000 (0000ms, 0668ms total)
T3750 000:926 JLINK_WriteMem(0x20000164, 0x029C Bytes, ...) - Data: D0 05 00 20 01 01 00 08 5D 3C 00 08 5D 37 00 08 ... -- CPU_WriteMem(668 bytes @ 0x20000164)  returns 0x29C (0006ms, 0675ms total)
T3750 000:932 JLINK_WriteMem(0x20000400, 0x0164 Bytes, ...) - Data: 67 EB 01 08 4F 46 22 46 01 20 00 21 00 F0 0E FA ... -- CPU_WriteMem(356 bytes @ 0x20000400)  returns 0x164 (0004ms, 0679ms total)
T3750 000:936 JLINK_WriteReg(R0, 0x08000000)  returns 0x00 (0000ms, 0679ms total)
T3750 000:936 JLINK_WriteReg(R1, 0x00000400)  returns 0x00 (0000ms, 0679ms total)
T3750 000:936 JLINK_WriteReg(R2, 0x20000164)  returns 0x00 (0000ms, 0679ms total)
T3750 000:936 JLINK_WriteReg(R3, 0x00000000)  returns 0x00 (0000ms, 0679ms total)
T3750 000:936 JLINK_WriteReg(R4, 0x00000000)  returns 0x00 (0000ms, 0679ms total)
T3750 000:936 JLINK_WriteReg(R5, 0x00000000)  returns 0x00 (0000ms, 0679ms total)
T3750 000:936 JLINK_WriteReg(R6, 0x00000000)  returns 0x00 (0000ms, 0679ms total)
T3750 000:937 JLINK_WriteReg(R7, 0x00000000)  returns 0x00 (0000ms, 0679ms total)
T3750 000:937 JLINK_WriteReg(R8, 0x00000000)  returns 0x00 (0000ms, 0679ms total)
T3750 000:937 JLINK_WriteReg(R9, 0x20000160)  returns 0x00 (0000ms, 0679ms total)
T3750 000:937 JLINK_WriteReg(R10, 0x00000000)  returns 0x00 (0000ms, 0679ms total)
T3750 000:937 JLINK_WriteReg(R11, 0x00000000)  returns 0x00 (0000ms, 0679ms total)
T3750 000:937 JLINK_WriteReg(R12, 0x00000000)  returns 0x00 (0000ms, 0679ms total)
T3750 000:937 JLINK_WriteReg(R13 (SP), 0x20001000)  returns 0x00 (0000ms, 0679ms total)
T3750 000:937 JLINK_WriteReg(R14, 0x20000001)  returns 0x00 (0000ms, 0679ms total)
T3750 000:937 JLINK_WriteReg(R15 (PC), 0x200000F4)  returns 0x00 (0000ms, 0679ms total)
T3750 000:937 JLINK_WriteReg(XPSR, 0x01000000)  returns 0x00 (0000ms, 0679ms total)
T3750 000:937 JLINK_WriteReg(MSP, 0x20001000)  returns 0x00 (0000ms, 0679ms total)
T3750 000:937 JLINK_WriteReg(PSP, 0x20001000)  returns 0x00 (0000ms, 0679ms total)
T3750 000:937 JLINK_WriteReg(CFBP, 0x00000000)  returns 0x00 (0000ms, 0679ms total)
T3750 000:937 JLINK_SetBPEx(Addr = 0x20000000, Type = 0xFFFFFFF2)  returns 0x00000005 (0000ms, 0679ms total)
T3750 000:937 JLINK_Go() (0005ms, 0684ms total)
T3750 000:942 JLINK_IsHalted()  returns FALSE (0002ms, 0686ms total)
T3750 000:966 JLINK_IsHalted()  returns FALSE (0002ms, 0686ms total)
T3750 000:969 JLINK_IsHalted()  returns FALSE (0002ms, 0686ms total)
T3750 000:977 JLINK_IsHalted() -- CPU_ReadMem(2 bytes @ 0x20000000)  returns TRUE (0008ms, 0692ms total)
T3750 000:985 JLINK_ReadReg(R15 (PC))  returns 0x20000000 (0000ms, 0684ms total)
T3750 000:985 JLINK_ClrBPEx(BPHandle = 0x00000005)  returns 0x00 (0000ms, 0684ms total)
T3750 000:985 JLINK_ReadReg(R0)  returns 0x00000000 (0000ms, 0684ms total)
T3750 000:986 JLINK_WriteMem(0x20000164, 0x029C Bytes, ...) - Data: 61 EB 02 01 00 1C 41 F5 80 13 00 18 5B 41 20 18 ... -- CPU_WriteMem(668 bytes @ 0x20000164)  returns 0x29C (0006ms, 0690ms total)
T3750 000:992 JLINK_WriteMem(0x20000400, 0x0164 Bytes, ...) - Data: 99 42 08 BF 90 42 30 BD 06 4C 07 4D 06 E0 E0 68 ... -- CPU_WriteMem(356 bytes @ 0x20000400)  returns 0x164 (0004ms, 0694ms total)
T3750 000:996 JLINK_WriteReg(R0, 0x08000400)  returns 0x00 (0000ms, 0694ms total)
T3750 000:996 JLINK_WriteReg(R1, 0x00000400)  returns 0x00 (0000ms, 0694ms total)
T3750 000:996 JLINK_WriteReg(R2, 0x20000164)  returns 0x00 (0000ms, 0694ms total)
T3750 000:996 JLINK_WriteReg(R3, 0x00000000)  returns 0x00 (0000ms, 0694ms total)
T3750 000:996 JLINK_WriteReg(R4, 0x00000000)  returns 0x00 (0000ms, 0694ms total)
T3750 000:996 JLINK_WriteReg(R5, 0x00000000)  returns 0x00 (0001ms, 0695ms total)
T3750 000:997 JLINK_WriteReg(R6, 0x00000000)  returns 0x00 (0000ms, 0695ms total)
T3750 000:997 JLINK_WriteReg(R7, 0x00000000)  returns 0x00 (0000ms, 0695ms total)
T3750 000:997 JLINK_WriteReg(R8, 0x00000000)  returns 0x00 (0000ms, 0695ms total)
T3750 000:997 JLINK_WriteReg(R9, 0x20000160)  returns 0x00 (0000ms, 0695ms total)
T3750 000:997 JLINK_WriteReg(R10, 0x00000000)  returns 0x00 (0000ms, 0695ms total)
T3750 000:997 JLINK_WriteReg(R11, 0x00000000)  returns 0x00 (0000ms, 0695ms total)
T3750 000:997 JLINK_WriteReg(R12, 0x00000000)  returns 0x00 (0000ms, 0695ms total)
T3750 000:997 JLINK_WriteReg(R13 (SP), 0x20001000)  returns 0x00 (0000ms, 0695ms total)
T3750 000:997 JLINK_WriteReg(R14, 0x20000001)  returns 0x00 (0000ms, 0695ms total)
T3750 000:997 JLINK_WriteReg(R15 (PC), 0x200000F4)  returns 0x00 (0000ms, 0695ms total)
T3750 000:997 JLINK_WriteReg(XPSR, 0x01000000)  returns 0x00 (0000ms, 0695ms total)
T3750 000:997 JLINK_WriteReg(MSP, 0x20001000)  returns 0x00 (0000ms, 0695ms total)
T3750 000:997 JLINK_WriteReg(PSP, 0x20001000)  returns 0x00 (0000ms, 0695ms total)
T3750 000:997 JLINK_WriteReg(CFBP, 0x00000000)  returns 0x00 (0000ms, 0695ms total)
T3750 000:997 JLINK_SetBPEx(Addr = 0x20000000, Type = 0xFFFFFFF2)  returns 0x00000006 (0000ms, 0695ms total)
T3750 000:997 JLINK_Go() (0005ms, 0700ms total)
T3750 001:002 JLINK_IsHalted()  returns FALSE (0004ms, 0704ms total)
T3750 001:012 JLINK_IsHalted()  returns FALSE (0002ms, 0702ms total)
T3750 001:015 JLINK_IsHalted()  returns FALSE (0002ms, 0702ms total)
T3750 001:018 JLINK_IsHalted()  returns FALSE (0002ms, 0702ms total)
T3750 001:021 JLINK_IsHalted()  returns FALSE (0002ms, 0702ms total)
T3750 001:024 JLINK_IsHalted()  returns FALSE (0002ms, 0702ms total)
T3750 001:027 JLINK_IsHalted()  returns FALSE (0002ms, 0702ms total)
T3750 001:030 JLINK_IsHalted()  returns FALSE (0002ms, 0702ms total)
T3750 001:033 JLINK_IsHalted() -- CPU_ReadMem(2 bytes @ 0x20000000)  returns TRUE (0007ms, 0707ms total)
T3750 001:040 JLINK_ReadReg(R15 (PC))  returns 0x20000000 (0000ms, 0700ms total)
T3750 001:040 JLINK_ClrBPEx(BPHandle = 0x00000006)  returns 0x00 (0001ms, 0701ms total)
T3750 001:041 JLINK_ReadReg(R0)  returns 0x00000000 (0000ms, 0701ms total)
T3750 001:041 JLINK_WriteMem(0x20000164, 0x029C Bytes, ...) - Data: 58 B9 20 68 00 F5 D8 70 00 EB 05 10 00 68 40 F2 ... -- CPU_WriteMem(668 bytes @ 0x20000164)  returns 0x29C (0006ms, 0707ms total)
T3750 001:047 JLINK_WriteMem(0x20000400, 0x0164 Bytes, ...) - Data: 4D 69 40 F8 35 40 08 88 80 B2 0C 89 40 EA 04 44 ... -- CPU_WriteMem(356 bytes @ 0x20000400)  returns 0x164 (0004ms, 0711ms total)
T3750 001:051 JLINK_WriteReg(R0, 0x08000800)  returns 0x00 (0000ms, 0711ms total)
T3750 001:051 JLINK_WriteReg(R1, 0x00000400)  returns 0x00 (0001ms, 0712ms total)
T3750 001:052 JLINK_WriteReg(R2, 0x20000164)  returns 0x00 (0000ms, 0712ms total)
T3750 001:052 JLINK_WriteReg(R3, 0x00000000)  returns 0x00 (0000ms, 0712ms total)
T3750 001:052 JLINK_WriteReg(R4, 0x00000000)  returns 0x00 (0000ms, 0712ms total)
T3750 001:052 JLINK_WriteReg(R5, 0x00000000)  returns 0x00 (0000ms, 0712ms total)
T3750 001:052 JLINK_WriteReg(R6, 0x00000000)  returns 0x00 (0000ms, 0712ms total)
T3750 001:052 JLINK_WriteReg(R7, 0x00000000)  returns 0x00 (0000ms, 0712ms total)
T3750 001:052 JLINK_WriteReg(R8, 0x00000000)  returns 0x00 (0000ms, 0712ms total)
T3750 001:052 JLINK_WriteReg(R9, 0x20000160)  returns 0x00 (0000ms, 0712ms total)
T3750 001:052 JLINK_WriteReg(R10, 0x00000000)  returns 0x00 (0000ms, 0712ms total)
T3750 001:052 JLINK_WriteReg(R11, 0x00000000)  returns 0x00 (0000ms, 0712ms total)
T3750 001:052 JLINK_WriteReg(R12, 0x00000000)  returns 0x00 (0000ms, 0712ms total)
T3750 001:052 JLINK_WriteReg(R13 (SP), 0x20001000)  returns 0x00 (0000ms, 0712ms total)
T3750 001:052 JLINK_WriteReg(R14, 0x20000001)  returns 0x00 (0000ms, 0712ms total)
T3750 001:052 JLINK_WriteReg(R15 (PC), 0x200000F4)  returns 0x00 (0000ms, 0712ms total)
T3750 001:052 JLINK_WriteReg(XPSR, 0x01000000)  returns 0x00 (0000ms, 0712ms total)
T3750 001:052 JLINK_WriteReg(MSP, 0x20001000)  returns 0x00 (0000ms, 0712ms total)
T3750 001:052 JLINK_WriteReg(PSP, 0x20001000)  returns 0x00 (0000ms, 0712ms total)
T3750 001:052 JLINK_WriteReg(CFBP, 0x00000000)  returns 0x00 (0000ms, 0712ms total)
T3750 001:052 JLINK_SetBPEx(Addr = 0x20000000, Type = 0xFFFFFFF2)  returns 0x00000007 (0000ms, 0712ms total)
T3750 001:052 JLINK_Go() (0005ms, 0717ms total)
T3750 001:057 JLINK_IsHalted()  returns FALSE (0003ms, 0720ms total)
T3750 001:061 JLINK_IsHalted()  returns FALSE (0002ms, 0719ms total)
T3750 001:064 JLINK_IsHalted()  returns FALSE (0002ms, 0719ms total)
T3750 001:067 JLINK_IsHalted()  returns FALSE (0002ms, 0719ms total)
T3750 001:070 JLINK_IsHalted()  returns FALSE (0002ms, 0719ms total)
T3750 001:073 JLINK_IsHalted()  returns FALSE (0002ms, 0719ms total)
T3750 001:076 JLINK_IsHalted()  returns FALSE (0002ms, 0719ms total)
T3750 001:084 JLINK_IsHalted()  returns FALSE (0002ms, 0719ms total)
T3750 001:087 JLINK_IsHalted() -- CPU_ReadMem(2 bytes @ 0x20000000)  returns TRUE (0008ms, 0725ms total)
T3750 001:095 JLINK_ReadReg(R15 (PC))  returns 0x20000000 (0000ms, 0717ms total)
T3750 001:095 JLINK_ClrBPEx(BPHandle = 0x00000007)  returns 0x00 (0000ms, 0717ms total)
T3750 001:095 JLINK_ReadReg(R0)  returns 0x00000000 (0000ms, 0717ms total)
T3750 001:099 JLINK_WriteMem(0x20000164, 0x029C Bytes, ...) - Data: 80 68 76 49 08 40 88 42 01 D1 01 20 00 E0 00 20 ... -- CPU_WriteMem(668 bytes @ 0x20000164)  returns 0x29C (0005ms, 0722ms total)
T3750 001:104 JLINK_WriteMem(0x20000400, 0x0164 Bytes, ...) - Data: 01 28 02 D1 45 F0 10 05 01 E0 25 F0 10 05 A0 6A ... -- CPU_WriteMem(356 bytes @ 0x20000400)  returns 0x164 (0004ms, 0726ms total)
T3750 001:108 JLINK_WriteReg(R0, 0x08000C00)  returns 0x00 (0000ms, 0726ms total)
T3750 001:108 JLINK_WriteReg(R1, 0x00000400)  returns 0x00 (0000ms, 0726ms total)
T3750 001:108 JLINK_WriteReg(R2, 0x20000164)  returns 0x00 (0000ms, 0726ms total)
T3750 001:108 JLINK_WriteReg(R3, 0x00000000)  returns 0x00 (0001ms, 0727ms total)
T3750 001:109 JLINK_WriteReg(R4, 0x00000000)  returns 0x00 (0000ms, 0727ms total)
T3750 001:109 JLINK_WriteReg(R5, 0x00000000)  returns 0x00 (0000ms, 0727ms total)
T3750 001:109 JLINK_WriteReg(R6, 0x00000000)  returns 0x00 (0000ms, 0727ms total)
T3750 001:109 JLINK_WriteReg(R7, 0x00000000)  returns 0x00 (0000ms, 0727ms total)
T3750 001:109 JLINK_WriteReg(R8, 0x00000000)  returns 0x00 (0000ms, 0727ms total)
T3750 001:109 JLINK_WriteReg(R9, 0x20000160)  returns 0x00 (0000ms, 0727ms total)
T3750 001:109 JLINK_WriteReg(R10, 0x00000000)  returns 0x00 (0000ms, 0727ms total)
T3750 001:109 JLINK_WriteReg(R11, 0x00000000)  returns 0x00 (0000ms, 0727ms total)
T3750 001:109 JLINK_WriteReg(R12, 0x00000000)  returns 0x00 (0000ms, 0727ms total)
T3750 001:109 JLINK_WriteReg(R13 (SP), 0x20001000)  returns 0x00 (0000ms, 0727ms total)
T3750 001:109 JLINK_WriteReg(R14, 0x20000001)  returns 0x00 (0000ms, 0727ms total)
T3750 001:109 JLINK_WriteReg(R15 (PC), 0x200000F4)  returns 0x00 (0000ms, 0727ms total)
T3750 001:109 JLINK_WriteReg(XPSR, 0x01000000)  returns 0x00 (0000ms, 0727ms total)
T3750 001:109 JLINK_WriteReg(MSP, 0x20001000)  returns 0x00 (0000ms, 0727ms total)
T3750 001:109 JLINK_WriteReg(PSP, 0x20001000)  returns 0x00 (0000ms, 0727ms total)
T3750 001:109 JLINK_WriteReg(CFBP, 0x00000000)  returns 0x00 (0000ms, 0727ms total)
T3750 001:109 JLINK_SetBPEx(Addr = 0x20000000, Type = 0xFFFFFFF2)  returns 0x00000008 (0000ms, 0727ms total)
T3750 001:109 JLINK_Go() (0005ms, 0732ms total)
T3750 001:114 JLINK_IsHalted()  returns FALSE (0002ms, 0734ms total)
T3750 001:117 JLINK_IsHalted()  returns FALSE (0002ms, 0734ms total)
T3750 001:120 JLINK_IsHalted()  returns FALSE (0002ms, 0734ms total)
T3750 001:123 JLINK_IsHalted()  returns FALSE (0002ms, 0734ms total)
T3750 001:126 JLINK_IsHalted()  returns FALSE (0002ms, 0734ms total)
T3750 001:129 JLINK_IsHalted()  returns FALSE (0002ms, 0734ms total)
T3750 001:132 JLINK_IsHalted()  returns FALSE (0002ms, 0734ms total)
T3750 001:135 JLINK_IsHalted()  returns FALSE (0002ms, 0734ms total)
T3750 001:138 JLINK_IsHalted()  returns FALSE (0002ms, 0734ms total)
T3750 001:141 JLINK_IsHalted()  returns FALSE (0002ms, 0734ms total)
T3750 001:144 JLINK_IsHalted() -- CPU_ReadMem(2 bytes @ 0x20000000)  returns TRUE (0008ms, 0740ms total)
T3750 001:152 JLINK_ReadReg(R15 (PC))  returns 0x20000000 (0000ms, 0732ms total)
T3750 001:152 JLINK_ClrBPEx(BPHandle = 0x00000008)  returns 0x00 (0000ms, 0732ms total)
T3750 001:152 JLINK_ReadReg(R0)  returns 0x00000000 (0000ms, 0732ms total)
T3750 001:153 JLINK_WriteMem(0x20000164, 0x029C Bytes, ...) - Data: 00 22 01 21 14 20 01 F0 BC FA 14 20 01 F0 AC FA ... -- CPU_WriteMem(668 bytes @ 0x20000164)  returns 0x29C (0006ms, 0738ms total)
T3750 001:159 JLINK_WriteMem(0x20000400, 0x0164 Bytes, ...) - Data: 00 BF 19 E0 94 F8 3C 00 52 28 04 D0 62 28 06 D0 ... -- CPU_WriteMem(356 bytes @ 0x20000400)  returns 0x164 (0003ms, 0741ms total)
T3750 001:162 JLINK_WriteReg(R0, 0x08001000)  returns 0x00 (0000ms, 0741ms total)
T3750 001:162 JLINK_WriteReg(R1, 0x00000400)  returns 0x00 (0000ms, 0741ms total)
T3750 001:162 JLINK_WriteReg(R2, 0x20000164)  returns 0x00 (0001ms, 0742ms total)
T3750 001:163 JLINK_WriteReg(R3, 0x00000000)  returns 0x00 (0000ms, 0742ms total)
T3750 001:163 JLINK_WriteReg(R4, 0x00000000)  returns 0x00 (0000ms, 0742ms total)
T3750 001:163 JLINK_WriteReg(R5, 0x00000000)  returns 0x00 (0000ms, 0742ms total)
T3750 001:163 JLINK_WriteReg(R6, 0x00000000)  returns 0x00 (0000ms, 0742ms total)
T3750 001:163 JLINK_WriteReg(R7, 0x00000000)  returns 0x00 (0000ms, 0742ms total)
T3750 001:163 JLINK_WriteReg(R8, 0x00000000)  returns 0x00 (0000ms, 0742ms total)
T3750 001:163 JLINK_WriteReg(R9, 0x20000160)  returns 0x00 (0000ms, 0742ms total)
T3750 001:163 JLINK_WriteReg(R10, 0x00000000)  returns 0x00 (0000ms, 0742ms total)
T3750 001:163 JLINK_WriteReg(R11, 0x00000000)  returns 0x00 (0000ms, 0742ms total)
T3750 001:163 JLINK_WriteReg(R12, 0x00000000)  returns 0x00 (0000ms, 0742ms total)
T3750 001:163 JLINK_WriteReg(R13 (SP), 0x20001000)  returns 0x00 (0000ms, 0742ms total)
T3750 001:163 JLINK_WriteReg(R14, 0x20000001)  returns 0x00 (0000ms, 0742ms total)
T3750 001:163 JLINK_WriteReg(R15 (PC), 0x200000F4)  returns 0x00 (0000ms, 0742ms total)
T3750 001:163 JLINK_WriteReg(XPSR, 0x01000000)  returns 0x00 (0000ms, 0742ms total)
T3750 001:163 JLINK_WriteReg(MSP, 0x20001000)  returns 0x00 (0000ms, 0742ms total)
T3750 001:163 JLINK_WriteReg(PSP, 0x20001000)  returns 0x00 (0000ms, 0742ms total)
T3750 001:163 JLINK_WriteReg(CFBP, 0x00000000)  returns 0x00 (0000ms, 0742ms total)
T3750 001:163 JLINK_SetBPEx(Addr = 0x20000000, Type = 0xFFFFFFF2)  returns 0x00000009 (0000ms, 0742ms total)
T3750 001:163 JLINK_Go() (0005ms, 0747ms total)
T3750 001:168 JLINK_IsHalted()  returns FALSE (0003ms, 0750ms total)
T3750 001:172 JLINK_IsHalted()  returns FALSE (0002ms, 0749ms total)
T3750 001:178 JLINK_IsHalted()  returns FALSE (0002ms, 0749ms total)
T3750 001:181 JLINK_IsHalted()  returns FALSE (0002ms, 0749ms total)
T3750 001:184 JLINK_IsHalted()  returns FALSE (0002ms, 0749ms total)
T3750 001:187 JLINK_IsHalted()  returns FALSE (0002ms, 0749ms total)
T3750 001:195 JLINK_IsHalted()  returns FALSE (0002ms, 0749ms total)
T3750 001:198 JLINK_IsHalted() -- CPU_ReadMem(2 bytes @ 0x20000000)  returns TRUE (0008ms, 0755ms total)
T3750 001:206 JLINK_ReadReg(R15 (PC))  returns 0x20000000 (0000ms, 0747ms total)
T3750 001:206 JLINK_ClrBPEx(BPHandle = 0x00000009)  returns 0x00 (0000ms, 0747ms total)
T3750 001:206 JLINK_ReadReg(R0)  returns 0x00000000 (0000ms, 0747ms total)
T3750 001:207 JLINK_WriteMem(0x20000164, 0x029C Bytes, ...) - Data: BA FE 20 21 04 A8 FE F7 B6 FE 00 20 05 E0 61 6B ... -- CPU_WriteMem(668 bytes @ 0x20000164)  returns 0x29C (0006ms, 0753ms total)
T3750 001:213 JLINK_WriteMem(0x20000400, 0x0164 Bytes, ...) - Data: 08 70 43 20 48 70 00 E0 04 E0 00 20 88 70 C8 70 ... -- CPU_WriteMem(356 bytes @ 0x20000400)  returns 0x164 (0004ms, 0757ms total)
T3750 001:217 JLINK_WriteReg(R0, 0x08001400)  returns 0x00 (0000ms, 0757ms total)
T3750 001:217 JLINK_WriteReg(R1, 0x00000400)  returns 0x00 (0000ms, 0757ms total)
T3750 001:217 JLINK_WriteReg(R2, 0x20000164)  returns 0x00 (0000ms, 0757ms total)
T3750 001:217 JLINK_WriteReg(R3, 0x00000000)  returns 0x00 (0000ms, 0757ms total)
T3750 001:217 JLINK_WriteReg(R4, 0x00000000)  returns 0x00 (0000ms, 0757ms total)
T3750 001:217 JLINK_WriteReg(R5, 0x00000000)  returns 0x00 (0000ms, 0757ms total)
T3750 001:217 JLINK_WriteReg(R6, 0x00000000)  returns 0x00 (0000ms, 0757ms total)
T3750 001:217 JLINK_WriteReg(R7, 0x00000000)  returns 0x00 (0000ms, 0757ms total)
T3750 001:217 JLINK_WriteReg(R8, 0x00000000)  returns 0x00 (0000ms, 0757ms total)
T3750 001:217 JLINK_WriteReg(R9, 0x20000160)  returns 0x00 (0000ms, 0757ms total)
T3750 001:217 JLINK_WriteReg(R10, 0x00000000)  returns 0x00 (0000ms, 0757ms total)
T3750 001:217 JLINK_WriteReg(R11, 0x00000000)  returns 0x00 (0000ms, 0757ms total)
T3750 001:217 JLINK_WriteReg(R12, 0x00000000)  returns 0x00 (0000ms, 0757ms total)
T3750 001:217 JLINK_WriteReg(R13 (SP), 0x20001000)  returns 0x00 (0000ms, 0757ms total)
T3750 001:217 JLINK_WriteReg(R14, 0x20000001)  returns 0x00 (0000ms, 0757ms total)
T3750 001:217 JLINK_WriteReg(R15 (PC), 0x200000F4)  returns 0x00 (0000ms, 0757ms total)
T3750 001:217 JLINK_WriteReg(XPSR, 0x01000000)  returns 0x00 (0001ms, 0758ms total)
T3750 001:218 JLINK_WriteReg(MSP, 0x20001000)  returns 0x00 (0000ms, 0758ms total)
T3750 001:218 JLINK_WriteReg(PSP, 0x20001000)  returns 0x00 (0000ms, 0758ms total)
T3750 001:218 JLINK_WriteReg(CFBP, 0x00000000)  returns 0x00 (0000ms, 0758ms total)
T3750 001:218 JLINK_SetBPEx(Addr = 0x20000000, Type = 0xFFFFFFF2)  returns 0x0000000A (0000ms, 0758ms total)
T3750 001:218 JLINK_Go() (0005ms, 0763ms total)
T3750 001:223 JLINK_IsHalted()  returns FALSE (0002ms, 0765ms total)
T3750 001:226 JLINK_IsHalted()  returns FALSE (0002ms, 0765ms total)
T3750 001:229 JLINK_IsHalted()  returns FALSE (0002ms, 0765ms total)
T3750 001:232 JLINK_IsHalted()  returns FALSE (0002ms, 0765ms total)
T3750 001:235 JLINK_IsHalted()  returns FALSE (0002ms, 0765ms total)
T3750 001:238 JLINK_IsHalted()  returns FALSE (0002ms, 0765ms total)
T3750 001:241 JLINK_IsHalted()  returns FALSE (0002ms, 0765ms total)
T3750 001:244 JLINK_IsHalted()  returns FALSE (0002ms, 0765ms total)
T3750 001:247 JLINK_IsHalted()  returns FALSE (0002ms, 0765ms total)
T3750 001:250 JLINK_IsHalted()  returns FALSE (0002ms, 0765ms total)
T3750 001:253 JLINK_IsHalted() -- CPU_ReadMem(2 bytes @ 0x20000000)  returns TRUE (0007ms, 0770ms total)
T3750 001:260 JLINK_ReadReg(R15 (PC))  returns 0x20000000 (0000ms, 0763ms total)
T3750 001:260 JLINK_ClrBPEx(BPHandle = 0x0000000A)  returns 0x00 (0000ms, 0763ms total)
T3750 001:260 JLINK_ReadReg(R0)  returns 0x00000000 (0000ms, 0763ms total)
T3750 001:262 JLINK_WriteMem(0x20000164, 0x029C Bytes, ...) - Data: 04 D0 32 28 06 D0 62 28 0C D1 07 E0 42 20 84 F8 ... -- CPU_WriteMem(668 bytes @ 0x20000164)  returns 0x29C (0005ms, 0768ms total)
T3750 001:267 JLINK_WriteMem(0x20000400, 0x0164 Bytes, ...) - Data: 09 D9 03 20 84 F8 3C 00 00 BF 00 20 84 F8 3D 00 ... -- CPU_WriteMem(356 bytes @ 0x20000400)  returns 0x164 (0004ms, 0772ms total)
T3750 001:271 JLINK_WriteReg(R0, 0x08001800)  returns 0x00 (0000ms, 0772ms total)
T3750 001:271 JLINK_WriteReg(R1, 0x00000400)  returns 0x00 (0001ms, 0773ms total)
T3750 001:272 JLINK_WriteReg(R2, 0x20000164)  returns 0x00 (0000ms, 0773ms total)
T3750 001:272 JLINK_WriteReg(R3, 0x00000000)  returns 0x00 (0000ms, 0773ms total)
T3750 001:272 JLINK_WriteReg(R4, 0x00000000)  returns 0x00 (0000ms, 0773ms total)
T3750 001:272 JLINK_WriteReg(R5, 0x00000000)  returns 0x00 (0000ms, 0773ms total)
T3750 001:272 JLINK_WriteReg(R6, 0x00000000)  returns 0x00 (0000ms, 0773ms total)
T3750 001:272 JLINK_WriteReg(R7, 0x00000000)  returns 0x00 (0000ms, 0773ms total)
T3750 001:272 JLINK_WriteReg(R8, 0x00000000)  returns 0x00 (0000ms, 0773ms total)
T3750 001:272 JLINK_WriteReg(R9, 0x20000160)  returns 0x00 (0000ms, 0773ms total)
T3750 001:272 JLINK_WriteReg(R10, 0x00000000)  returns 0x00 (0000ms, 0773ms total)
T3750 001:272 JLINK_WriteReg(R11, 0x00000000)  returns 0x00 (0000ms, 0773ms total)
T3750 001:272 JLINK_WriteReg(R12, 0x00000000)  returns 0x00 (0000ms, 0773ms total)
T3750 001:272 JLINK_WriteReg(R13 (SP), 0x20001000)  returns 0x00 (0000ms, 0773ms total)
T3750 001:272 JLINK_WriteReg(R14, 0x20000001)  returns 0x00 (0000ms, 0773ms total)
T3750 001:272 JLINK_WriteReg(R15 (PC), 0x200000F4)  returns 0x00 (0000ms, 0773ms total)
T3750 001:272 JLINK_WriteReg(XPSR, 0x01000000)  returns 0x00 (0000ms, 0773ms total)
T3750 001:272 JLINK_WriteReg(MSP, 0x20001000)  returns 0x00 (0000ms, 0773ms total)
T3750 001:272 JLINK_WriteReg(PSP, 0x20001000)  returns 0x00 (0000ms, 0773ms total)
T3750 001:272 JLINK_WriteReg(CFBP, 0x00000000)  returns 0x00 (0000ms, 0773ms total)
T3750 001:272 JLINK_SetBPEx(Addr = 0x20000000, Type = 0xFFFFFFF2)  returns 0x0000000B (0000ms, 0773ms total)
T3750 001:272 JLINK_Go() (0005ms, 0778ms total)
T3750 001:277 JLINK_IsHalted()  returns FALSE (0003ms, 0781ms total)
T3750 001:281 JLINK_IsHalted()  returns FALSE (0002ms, 0780ms total)
T3750 001:284 JLINK_IsHalted()  returns FALSE (0002ms, 0780ms total)
T3750 001:287 JLINK_IsHalted()  returns FALSE (0002ms, 0780ms total)
T3750 001:290 JLINK_IsHalted()  returns FALSE (0002ms, 0780ms total)
T3750 001:293 JLINK_IsHalted()  returns FALSE (0002ms, 0780ms total)
T3750 001:296 JLINK_IsHalted()  returns FALSE (0002ms, 0780ms total)
T3750 001:299 JLINK_IsHalted()  returns FALSE (0002ms, 0780ms total)
T3750 001:306 JLINK_IsHalted() -- CPU_ReadMem(2 bytes @ 0x20000000)  returns TRUE (0008ms, 0786ms total)
T3750 001:314 JLINK_ReadReg(R15 (PC))  returns 0x20000000 (0000ms, 0786ms total)
T3750 001:314 JLINK_ClrBPEx(BPHandle = 0x0000000B)  returns 0x00 (0000ms, 0786ms total)
T3750 001:314 JLINK_ReadReg(R0)  returns 0x00000000 (0000ms, 0786ms total)
T3750 001:317 JLINK_WriteMem(0x20000164, 0x029C Bytes, ...) - Data: 00 24 00 26 7F E0 01 27 87 40 07 EA 03 01 00 29 ... -- CPU_WriteMem(668 bytes @ 0x20000164)  returns 0x29C (0006ms, 0792ms total)
T3750 001:323 JLINK_WriteMem(0x20000400, 0x0164 Bytes, ...) - Data: B9 F5 04 1F 30 D1 17 E0 D1 F8 0C C0 2D E0 D1 F8 ... -- CPU_WriteMem(356 bytes @ 0x20000400)  returns 0x164 (0004ms, 0796ms total)
T3750 001:327 JLINK_WriteReg(R0, 0x08001C00)  returns 0x00 (0000ms, 0796ms total)
T3750 001:327 JLINK_WriteReg(R1, 0x00000400)  returns 0x00 (0000ms, 0796ms total)
T3750 001:327 JLINK_WriteReg(R2, 0x20000164)  returns 0x00 (0000ms, 0796ms total)
T3750 001:327 JLINK_WriteReg(R3, 0x00000000)  returns 0x00 (0000ms, 0796ms total)
T3750 001:327 JLINK_WriteReg(R4, 0x00000000)  returns 0x00 (0000ms, 0796ms total)
T3750 001:327 JLINK_WriteReg(R5, 0x00000000)  returns 0x00 (0000ms, 0796ms total)
T3750 001:327 JLINK_WriteReg(R6, 0x00000000)  returns 0x00 (0000ms, 0796ms total)
T3750 001:327 JLINK_WriteReg(R7, 0x00000000)  returns 0x00 (0000ms, 0796ms total)
T3750 001:327 JLINK_WriteReg(R8, 0x00000000)  returns 0x00 (0000ms, 0796ms total)
T3750 001:327 JLINK_WriteReg(R9, 0x20000160)  returns 0x00 (0000ms, 0796ms total)
T3750 001:327 JLINK_WriteReg(R10, 0x00000000)  returns 0x00 (0000ms, 0796ms total)
T3750 001:327 JLINK_WriteReg(R11, 0x00000000)  returns 0x00 (0000ms, 0796ms total)
T3750 001:327 JLINK_WriteReg(R12, 0x00000000)  returns 0x00 (0000ms, 0796ms total)
T3750 001:327 JLINK_WriteReg(R13 (SP), 0x20001000)  returns 0x00 (0000ms, 0796ms total)
T3750 001:327 JLINK_WriteReg(R14, 0x20000001)  returns 0x00 (0000ms, 0796ms total)
T3750 001:327 JLINK_WriteReg(R15 (PC), 0x200000F4)  returns 0x00 (0000ms, 0796ms total)
T3750 001:327 JLINK_WriteReg(XPSR, 0x01000000)  returns 0x00 (0000ms, 0796ms total)
T3750 001:327 JLINK_WriteReg(MSP, 0x20001000)  returns 0x00 (0000ms, 0796ms total)
T3750 001:328 JLINK_WriteReg(PSP, 0x20001000)  returns 0x00 (0000ms, 0797ms total)
T3750 001:328 JLINK_WriteReg(CFBP, 0x00000000)  returns 0x00 (0000ms, 0797ms total)
T3750 001:328 JLINK_SetBPEx(Addr = 0x20000000, Type = 0xFFFFFFF2)  returns 0x0000000C (0000ms, 0797ms total)
T3750 001:328 JLINK_Go() (0005ms, 0802ms total)
T3750 001:333 JLINK_IsHalted()  returns FALSE (0002ms, 0804ms total)
T3750 001:336 JLINK_IsHalted()  returns FALSE (0002ms, 0804ms total)
T3750 001:339 JLINK_IsHalted()  returns FALSE (0002ms, 0804ms total)
T3750 001:342 JLINK_IsHalted()  returns FALSE (0002ms, 0804ms total)
T3750 001:345 JLINK_IsHalted()  returns FALSE (0002ms, 0804ms total)
T3750 001:348 JLINK_IsHalted()  returns FALSE (0002ms, 0804ms total)
T3750 001:351 JLINK_IsHalted()  returns FALSE (0002ms, 0804ms total)
T3750 001:354 JLINK_IsHalted()  returns FALSE (0002ms, 0804ms total)
T3750 001:357 JLINK_IsHalted()  returns FALSE (0002ms, 0804ms total)
T3750 001:360 JLINK_IsHalted()  returns FALSE (0002ms, 0804ms total)
T3750 001:363 JLINK_IsHalted() -- CPU_ReadMem(2 bytes @ 0x20000000)  returns TRUE (0007ms, 0809ms total)
T3750 001:370 JLINK_ReadReg(R15 (PC))  returns 0x20000000 (0000ms, 0802ms total)
T3750 001:370 JLINK_ClrBPEx(BPHandle = 0x0000000C)  returns 0x00 (0000ms, 0802ms total)
T3750 001:370 JLINK_ReadReg(R0)  returns 0x00000000 (0000ms, 0802ms total)
T3750 001:371 JLINK_WriteMem(0x20000164, 0x029C Bytes, ...) - Data: B8 F5 80 3F 0A D1 DF F8 2C 81 D8 F8 00 80 48 EA ... -- CPU_WriteMem(668 bytes @ 0x20000164)  returns 0x29C (0006ms, 0808ms total)
T3750 001:377 JLINK_WriteMem(0x20000400, 0x0164 Bytes, ...) - Data: 00 95 01 F0 04 FB 10 B1 02 20 BD E8 F8 83 00 BF ... -- CPU_WriteMem(356 bytes @ 0x20000400)  returns 0x164 (0004ms, 0812ms total)
T3750 001:381 JLINK_WriteReg(R0, 0x08002000)  returns 0x00 (0000ms, 0812ms total)
T3750 001:381 JLINK_WriteReg(R1, 0x00000400)  returns 0x00 (0000ms, 0812ms total)
T3750 001:381 JLINK_WriteReg(R2, 0x20000164)  returns 0x00 (0000ms, 0812ms total)
T3750 001:381 JLINK_WriteReg(R3, 0x00000000)  returns 0x00 (0000ms, 0812ms total)
T3750 001:381 JLINK_WriteReg(R4, 0x00000000)  returns 0x00 (0000ms, 0812ms total)
T3750 001:381 JLINK_WriteReg(R5, 0x00000000)  returns 0x00 (0000ms, 0812ms total)
T3750 001:381 JLINK_WriteReg(R6, 0x00000000)  returns 0x00 (0000ms, 0812ms total)
T3750 001:381 JLINK_WriteReg(R7, 0x00000000)  returns 0x00 (0000ms, 0812ms total)
T3750 001:381 JLINK_WriteReg(R8, 0x00000000)  returns 0x00 (0000ms, 0812ms total)
T3750 001:381 JLINK_WriteReg(R9, 0x20000160)  returns 0x00 (0000ms, 0812ms total)
T3750 001:381 JLINK_WriteReg(R10, 0x00000000)  returns 0x00 (0000ms, 0812ms total)
T3750 001:381 JLINK_WriteReg(R11, 0x00000000)  returns 0x00 (0000ms, 0812ms total)
T3750 001:381 JLINK_WriteReg(R12, 0x00000000)  returns 0x00 (0000ms, 0812ms total)
T3750 001:381 JLINK_WriteReg(R13 (SP), 0x20001000)  returns 0x00 (0001ms, 0813ms total)
T3750 001:382 JLINK_WriteReg(R14, 0x20000001)  returns 0x00 (0000ms, 0813ms total)
T3750 001:382 JLINK_WriteReg(R15 (PC), 0x200000F4)  returns 0x00 (0000ms, 0813ms total)
T3750 001:382 JLINK_WriteReg(XPSR, 0x01000000)  returns 0x00 (0000ms, 0813ms total)
T3750 001:382 JLINK_WriteReg(MSP, 0x20001000)  returns 0x00 (0000ms, 0813ms total)
T3750 001:382 JLINK_WriteReg(PSP, 0x20001000)  returns 0x00 (0000ms, 0813ms total)
T3750 001:382 JLINK_WriteReg(CFBP, 0x00000000)  returns 0x00 (0000ms, 0813ms total)
T3750 001:382 JLINK_SetBPEx(Addr = 0x20000000, Type = 0xFFFFFFF2)  returns 0x0000000D (0000ms, 0813ms total)
T3750 001:382 JLINK_Go() (0005ms, 0818ms total)
T3750 001:387 JLINK_IsHalted()  returns FALSE (0002ms, 0820ms total)
T3750 001:390 JLINK_IsHalted()  returns FALSE (0002ms, 0820ms total)
T3750 001:393 JLINK_IsHalted()  returns FALSE (0002ms, 0820ms total)
T3750 001:396 JLINK_IsHalted()  returns FALSE (0002ms, 0820ms total)
T3750 001:399 JLINK_IsHalted()  returns FALSE (0002ms, 0820ms total)
T3750 001:402 JLINK_IsHalted()  returns FALSE (0002ms, 0820ms total)
T3750 001:405 JLINK_IsHalted()  returns FALSE (0002ms, 0820ms total)
T3750 001:408 JLINK_IsHalted()  returns FALSE (0002ms, 0820ms total)
T3750 001:415 JLINK_IsHalted()  returns FALSE (0002ms, 0820ms total)
T3750 001:418 JLINK_IsHalted() -- CPU_ReadMem(2 bytes @ 0x20000000)  returns TRUE (0008ms, 0826ms total)
T3750 001:426 JLINK_ReadReg(R15 (PC))  returns 0x20000000 (0000ms, 0818ms total)
T3750 001:426 JLINK_ClrBPEx(BPHandle = 0x0000000D)  returns 0x00 (0000ms, 0818ms total)
T3750 001:426 JLINK_ReadReg(R0)  returns 0x00000000 (0000ms, 0818ms total)
T3750 001:427 JLINK_WriteMem(0x20000164, 0x029C Bytes, ...) - Data: 02 00 10 00 00 00 FF FF 10 B5 86 B0 04 46 0F 49 ... -- CPU_WriteMem(668 bytes @ 0x20000164)  returns 0x29C (0006ms, 0824ms total)
T3750 001:433 JLINK_WriteMem(0x20000400, 0x0164 Bytes, ...) - Data: 00 F0 00 70 40 B9 01 20 D8 E7 46 48 00 68 00 F0 ... -- CPU_WriteMem(356 bytes @ 0x20000400)  returns 0x164 (0003ms, 0827ms total)
T3750 001:436 JLINK_WriteReg(R0, 0x08002400)  returns 0x00 (0000ms, 0827ms total)
T3750 001:437 JLINK_WriteReg(R1, 0x00000400)  returns 0x00 (0000ms, 0827ms total)
T3750 001:437 JLINK_WriteReg(R2, 0x20000164)  returns 0x00 (0000ms, 0827ms total)
T3750 001:437 JLINK_WriteReg(R3, 0x00000000)  returns 0x00 (0000ms, 0827ms total)
T3750 001:437 JLINK_WriteReg(R4, 0x00000000)  returns 0x00 (0000ms, 0827ms total)
T3750 001:437 JLINK_WriteReg(R5, 0x00000000)  returns 0x00 (0000ms, 0827ms total)
T3750 001:437 JLINK_WriteReg(R6, 0x00000000)  returns 0x00 (0000ms, 0827ms total)
T3750 001:437 JLINK_WriteReg(R7, 0x00000000)  returns 0x00 (0000ms, 0827ms total)
T3750 001:437 JLINK_WriteReg(R8, 0x00000000)  returns 0x00 (0000ms, 0827ms total)
T3750 001:437 JLINK_WriteReg(R9, 0x20000160)  returns 0x00 (0000ms, 0827ms total)
T3750 001:437 JLINK_WriteReg(R10, 0x00000000)  returns 0x00 (0000ms, 0827ms total)
T3750 001:437 JLINK_WriteReg(R11, 0x00000000)  returns 0x00 (0000ms, 0827ms total)
T3750 001:437 JLINK_WriteReg(R12, 0x00000000)  returns 0x00 (0000ms, 0827ms total)
T3750 001:437 JLINK_WriteReg(R13 (SP), 0x20001000)  returns 0x00 (0000ms, 0827ms total)
T3750 001:437 JLINK_WriteReg(R14, 0x20000001)  returns 0x00 (0000ms, 0827ms total)
T3750 001:437 JLINK_WriteReg(R15 (PC), 0x200000F4)  returns 0x00 (0000ms, 0827ms total)
T3750 001:437 JLINK_WriteReg(XPSR, 0x01000000)  returns 0x00 (0000ms, 0827ms total)
T3750 001:437 JLINK_WriteReg(MSP, 0x20001000)  returns 0x00 (0000ms, 0827ms total)
T3750 001:437 JLINK_WriteReg(PSP, 0x20001000)  returns 0x00 (0000ms, 0827ms total)
T3750 001:437 JLINK_WriteReg(CFBP, 0x00000000)  returns 0x00 (0000ms, 0827ms total)
T3750 001:437 JLINK_SetBPEx(Addr = 0x20000000, Type = 0xFFFFFFF2)  returns 0x0000000E (0000ms, 0827ms total)
T3750 001:437 JLINK_Go() (0005ms, 0832ms total)
T3750 001:442 JLINK_IsHalted()  returns FALSE (0002ms, 0834ms total)
T3750 001:453 JLINK_IsHalted()  returns FALSE (0002ms, 0834ms total)
T3750 001:456 JLINK_IsHalted()  returns FALSE (0002ms, 0834ms total)
T3750 001:459 JLINK_IsHalted()  returns FALSE (0002ms, 0834ms total)
T3750 001:462 JLINK_IsHalted()  returns FALSE (0002ms, 0834ms total)
T3750 001:465 JLINK_IsHalted()  returns FALSE (0002ms, 0834ms total)
T3750 001:468 JLINK_IsHalted()  returns FALSE (0002ms, 0834ms total)
T3750 001:471 JLINK_IsHalted() -- CPU_ReadMem(2 bytes @ 0x20000000)  returns TRUE (0007ms, 0839ms total)
T3750 001:478 JLINK_ReadReg(R15 (PC))  returns 0x20000000 (0000ms, 0832ms total)
T3750 001:478 JLINK_ClrBPEx(BPHandle = 0x0000000E)  returns 0x00 (0000ms, 0832ms total)
T3750 001:478 JLINK_ReadReg(R0)  returns 0x00000000 (0000ms, 0832ms total)
T3750 001:479 JLINK_WriteMem(0x20000164, 0x029C Bytes, ...) - Data: 49 68 C1 F3 C2 21 03 4A 51 5C C8 40 00 BD 00 00 ... -- CPU_WriteMem(668 bytes @ 0x20000164)  returns 0x29C (0006ms, 0838ms total)
T3750 001:485 JLINK_WriteMem(0x20000400, 0x0164 Bytes, ...) - Data: 02 00 00 28 F2 D0 01 20 01 F0 EE F9 13 E0 00 20 ... -- CPU_WriteMem(356 bytes @ 0x20000400)  returns 0x164 (0004ms, 0842ms total)
T3750 001:489 JLINK_WriteReg(R0, 0x08002800)  returns 0x00 (0000ms, 0842ms total)
T3750 001:489 JLINK_WriteReg(R1, 0x00000400)  returns 0x00 (0000ms, 0842ms total)
T3750 001:489 JLINK_WriteReg(R2, 0x20000164)  returns 0x00 (0000ms, 0842ms total)
T3750 001:490 JLINK_WriteReg(R3, 0x00000000)  returns 0x00 (0000ms, 0843ms total)
T3750 001:490 JLINK_WriteReg(R4, 0x00000000)  returns 0x00 (0000ms, 0843ms total)
T3750 001:490 JLINK_WriteReg(R5, 0x00000000)  returns 0x00 (0000ms, 0843ms total)
T3750 001:490 JLINK_WriteReg(R6, 0x00000000)  returns 0x00 (0000ms, 0843ms total)
T3750 001:490 JLINK_WriteReg(R7, 0x00000000)  returns 0x00 (0000ms, 0843ms total)
T3750 001:490 JLINK_WriteReg(R8, 0x00000000)  returns 0x00 (0000ms, 0843ms total)
T3750 001:490 JLINK_WriteReg(R9, 0x20000160)  returns 0x00 (0000ms, 0843ms total)
T3750 001:490 JLINK_WriteReg(R10, 0x00000000)  returns 0x00 (0000ms, 0843ms total)
T3750 001:490 JLINK_WriteReg(R11, 0x00000000)  returns 0x00 (0000ms, 0843ms total)
T3750 001:490 JLINK_WriteReg(R12, 0x00000000)  returns 0x00 (0000ms, 0843ms total)
T3750 001:490 JLINK_WriteReg(R13 (SP), 0x20001000)  returns 0x00 (0000ms, 0843ms total)
T3750 001:490 JLINK_WriteReg(R14, 0x20000001)  returns 0x00 (0000ms, 0843ms total)
T3750 001:490 JLINK_WriteReg(R15 (PC), 0x200000F4)  returns 0x00 (0000ms, 0843ms total)
T3750 001:490 JLINK_WriteReg(XPSR, 0x01000000)  returns 0x00 (0000ms, 0843ms total)
T3750 001:490 JLINK_WriteReg(MSP, 0x20001000)  returns 0x00 (0000ms, 0843ms total)
T3750 001:490 JLINK_WriteReg(PSP, 0x20001000)  returns 0x00 (0000ms, 0843ms total)
T3750 001:490 JLINK_WriteReg(CFBP, 0x00000000)  returns 0x00 (0000ms, 0843ms total)
T3750 001:490 JLINK_SetBPEx(Addr = 0x20000000, Type = 0xFFFFFFF2)  returns 0x0000000F (0000ms, 0843ms total)
T3750 001:490 JLINK_Go() (0005ms, 0848ms total)
T3750 001:495 JLINK_IsHalted()  returns FALSE (0003ms, 0851ms total)
